<Qucs Dataset 0.0.15>
<indep x 10>
  +5.00000000000e+00
  +1.00000000000e+01
  +1.50000000000e+01
  +2.00000000000e+01
  +2.50000000000e+01
  +3.00000000000e+01
  +3.50000000000e+01
  +4.00000000000e+01
  +4.50000000000e+01
  +5.00000000000e+01
</indep>
<dep V1.I x>
  -1.35000000000e+00
  -9.52941176471e-01
  -7.36363636364e-01
  -6.00000000000e-01
  -5.06250000000e-01
  -4.37837837838e-01
  -3.85714285714e-01
  -3.44680851064e-01
  -3.11538461538e-01
  -2.84210526316e-01
</dep>
<dep _net1.V x>
  +6.75000000000e+00
  +9.52941176471e+00
  +1.10454545455e+01
  +1.20000000000e+01
  +1.26562500000e+01
  +1.31351351351e+01
  +1.35000000000e+01
  +1.37872340426e+01
  +1.40192307692e+01
  +1.42105263158e+01
</dep>
<dep _net0.V x>
  +1.62000000000e+01
  +1.62000000000e+01
  +1.62000000000e+01
  +1.62000000000e+01
  +1.62000000000e+01
  +1.62000000000e+01
  +1.62000000000e+01
  +1.62000000000e+01
  +1.62000000000e+01
  +1.62000000000e+01
</dep>
